
T19954 000:431 SEGGER J-Link V4.82 Log File (0001ms, 0261ms total)
T19954 000:431 DLL Compiled: Mar 10 2014 19:07:45 (0001ms, 0261ms total)
T19954 000:431 Logging started @ 2025-07-22 14:24 (0001ms, 0261ms total)
T19954 000:432 JLINK_SetWarnOutHandler(...) (0000ms, 0261ms total)
T19954 000:432 JLINK_OpenEx(...)
Firmware: J-Link ARM-OB STM32 compiled Aug 22 2012 19:52:04
Hardware: V7.00
Feature(s): RDI,FlashDL,FlashBP,JFlash,GDB  returns O.K. (0260ms, 0521ms total)
T19954 000:692 JLINK_GetEmuCaps()  returns 0x88EA5833 (0000ms, 0521ms total)
T19954 000:692 JLINK_TIF_GetAvailable(...) (0000ms, 0521ms total)
T19954 000:692 JLINK_SetErrorOutHandler(...) (0000ms, 0521ms total)
T19954 000:692 JLINK_ExecCommand("ProjectFile = "E:\stm32f407\part_two\stm32f407_5\mdk\JLinkSettings.ini"", ...)Device "CORTEX-M4" selected (0 KB flash, 0 KB RAM).  returns 0x00 (0003ms, 0524ms total)
T19954 000:702 JLINK_ExecCommand("Device = STM32F407VETx", ...)Device "CORTEX-M4" selected (0 KB flash, 0 KB RAM).  returns 0x00 (0005ms, 0529ms total)
T19954 000:707 JLINK_ExecCommand("DisableConnectionTimeout", ...)  returns 0x01 (0000ms, 0529ms total)
T19954 000:707 JLINK_GetHardwareVersion()  returns 0x11170 (0000ms, 0529ms total)
T19954 000:707 JLINK_GetDLLVersion()  returns 48200 (0000ms, 0529ms total)
T19954 000:707 JLINK_GetFirmwareString(...) (0000ms, 0529ms total)
T19954 000:719 JLINK_GetDLLVersion()  returns 48200 (0000ms, 0529ms total)
T19954 000:719 JLINK_GetCompileDateTime() (0000ms, 0529ms total)
T19954 000:721 JLINK_GetFirmwareString(...) (0000ms, 0529ms total)
T19954 000:723 JLINK_GetHardwareVersion()  returns 0x11170 (0000ms, 0529ms total)
T19954 000:728 JLINK_TIF_Select(JLINKARM_TIF_SWD)  returns 0x00 (0001ms, 0530ms total)
T19954 000:729 JLINK_SetSpeed(5000) (0000ms, 0530ms total)
T19954 000:729 JLINK_GetId() >0x108 TIF>Found SWD-DP with ID 0x2BA01477 >0x0D TIF> >0x21 TIF> >0x0D TIF> >0x28 TIF> >0x0D TIF> >0x28 TIF> >0x0D TIF> >0x21 TIF> >0x0D TIF> >0x28 TIF> >0x0D TIF> >0x21 TIF> >0x0D TIF> >0x21 TIF> >0x0D TIF> >0x21 TIF> >0x0D TIF> >0x21 TIF> >0x0D TIF> >0x28 TIF> >0x0D TIF> >0x28 TIF> >0x0D TIF> >0x21 TIF> >0x0D TIF> >0x28 TIF> >0x0D TIF> >0x28 TIF> >0x0D TIF> >0x28 TIF> >0x0D TIF> >0x21 TIF> >0x0D TIF> >0x21 TIF> >0x0D TIF> >0x28 TIF> >0x0D TIF> >0x21 TIF> >0x0D TIF>
 >0x21 TIF>Found Cortex-M4 r0p1, Little endian. -- CPU_WriteMem(4 bytes @ 0xE0002000) -- CPU_ReadMem(4 bytes @ 0xE000EDF0) -- CPU_ReadMem(4 bytes @ 0xE0002000)FPUnit: 6 code (BP) slots and 2 literal slots -- CPU_ReadMem(4 bytes @ 0xE000EDFC) -- CPU_ReadMem(4 bytes @ 0xE0001000) -- CPU_WriteMem(4 bytes @ 0xE0001000) -- CPU_ReadMem(4 bytes @ 0xE00FF010)TPIU fitted. -- CPU_ReadMem(4 bytes @ 0xE00FF014)ETM fitted. -- CPU_ReadMem(4 bytes @ 0xE00FF018) >0x0D TIF> >0x21 TIF>  returns 0x2BA01477
 (0026ms, 0556ms total)
T19954 000:755 JLINK_GetDLLVersion()  returns 48200 (0000ms, 0556ms total)
T19954 000:755 JLINK_CORE_GetFound()  returns 0xE0000FF (0000ms, 0556ms total)
T19954 000:757 JLINK_GetDebugInfo(0x100) -- Value=0xE00FF003  returns 0x00 (0000ms, 0556ms total)
T19954 000:757 JLINK_GetDebugInfo(0x101)  returns 0xFFFFFFFF (0000ms, 0556ms total)
T19954 000:757 JLINK_ReadMemEx(0xE0041FF0, 0x0010 Bytes, ..., AccessWidth = 33554436) -- CPU is running -- CPU_ReadMem(16 bytes @ 0xE0041FF0) -- Data:  0D 00 00 00 90 00 00 00 05 00 00 00 B1 00 00 00  returns 0x10 (0001ms, 0557ms total)
T19954 000:758 JLINK_GetDebugInfo(0x102)  returns 0xFFFFFFFF (0000ms, 0557ms total)
T19954 000:758 JLINK_GetDebugInfo(0x103)  returns 0xFFFFFFFF (0000ms, 0557ms total)
T19954 000:758 JLINK_ReadMemEx(0xE0040FF0, 0x0010 Bytes, ..., AccessWidth = 33554436) -- CPU is running -- CPU_ReadMem(16 bytes @ 0xE0040FF0) -- Data:  0D 00 00 00 90 00 00 00 05 00 00 00 B1 00 00 00  returns 0x10 (0001ms, 0558ms total)
T19954 000:759 JLINK_GetDebugInfo(0x104)  returns 0xFFFFFFFF (0000ms, 0558ms total)
T19954 000:759 JLINK_GetDebugInfo(0x105)  returns 0xFFFFFFFF (0000ms, 0558ms total)
T19954 000:759 JLINK_GetDebugInfo(0x106)  returns 0xFFFFFFFF (0000ms, 0558ms total)
T19954 000:759 JLINK_GetDebugInfo(0x107)  returns 0xFFFFFFFF (0000ms, 0558ms total)
T19954 000:759 JLINK_GetDebugInfo(0x10C)  returns 0xFFFFFFFF (0000ms, 0558ms total)
T19954 000:759 JLINK_ReadMemU32(0xE000EF40, 0x0001 Items, ...) -- CPU is running -- CPU_ReadMem(4 bytes @ 0xE000EF40) -- Data:  21 00 11 10  returns 0x01 (0000ms, 0558ms total)
T19954 000:759 JLINK_ReadMemU32(0xE000EF44, 0x0001 Items, ...) -- CPU is running -- CPU_ReadMem(4 bytes @ 0xE000EF44) -- Data:  11 00 00 11  returns 0x01 (0000ms, 0558ms total)
T19954 000:759 JLINK_ReadMemU32(0xE000ED00, 0x0001 Items, ...) -- CPU is running -- CPU_ReadMem(4 bytes @ 0xE000ED00) -- Data:  41 C2 0F 41  returns 0x01 (0001ms, 0559ms total)
T19954 000:760 JLINK_GetDebugInfo(0x10F)  returns 0xFFFFFFFF (0000ms, 0559ms total)
T19954 000:760 JLINK_SetResetType(JLINKARM_RESET_TYPE_NORMAL)  returns JLINKARM_RESET_TYPE_NORMAL (0000ms, 0559ms total)
T19954 000:760 JLINK_Reset() -- CPU is running -- CPU_WriteMem(4 bytes @ 0xE000EDF0) -- CPU is running -- CPU_WriteMem(4 bytes @ 0xE000EDFC) >0x35 TIF> -- CPU is running -- CPU_WriteMem(4 bytes @ 0xE000ED0C) -- CPU is running -- CPU_ReadMem(4 bytes @ 0xE000EDF0) -- CPU is running -- CPU_ReadMem(4 bytes @ 0xE000EDF0) -- CPU is running -- CPU_WriteMem(4 bytes @ 0xE000EDF0) -- CPU is running -- CPU_WriteMem(4 bytes @ 0xE000EDFC) -- CPU is running -- CPU_ReadMem(4 bytes @ 0xE000EDF0)
 -- CPU_WriteMem(4 bytes @ 0xE0002000) -- CPU_ReadMem(4 bytes @ 0xE000EDFC) -- CPU_ReadMem(4 bytes @ 0xE0001000) (0018ms, 0577ms total)
T19954 000:778 JLINK_Halt()  returns 0x00 (0000ms, 0577ms total)
T19954 000:778 JLINK_ReadMemU32(0xE000EDF0, 0x0001 Items, ...) -- CPU_ReadMem(4 bytes @ 0xE000EDF0) -- Data:  03 00 03 00  returns 0x01 (0001ms, 0578ms total)
T19954 000:779 JLINK_WriteU32(0xE000EDF0, 0xA05F0003) -- CPU_WriteMem(4 bytes @ 0xE000EDF0)  returns 0x00 (0000ms, 0578ms total)
T19954 000:779 JLINK_WriteU32(0xE000EDFC, 0x01000000) -- CPU_WriteMem(4 bytes @ 0xE000EDFC)  returns 0x00 (0001ms, 0579ms total)
T19954 000:791 JLINK_GetHWStatus(...)  returns 0x00 (0000ms, 0579ms total)
T19954 000:799 JLINK_GetNumBPUnits(Type = 0xFFFFFF00)  returns 0x06 (0000ms, 0579ms total)
T19954 000:799 JLINK_GetNumBPUnits(Type = 0xF0)  returns 0x2000 (0000ms, 0579ms total)
T19954 000:799 JLINK_GetNumWPUnits()  returns 0x04 (0000ms, 0579ms total)
T19954 000:804 JLINK_GetSpeed()  returns 0xFA0 (0001ms, 0580ms total)
T19954 000:808 JLINK_ReadMemU32(0xE000E004, 0x0001 Items, ...) -- CPU_ReadMem(4 bytes @ 0xE000E004) -- Data:  02 00 00 00  returns 0x01 (0001ms, 0581ms total)
T19954 000:809 JLINK_ReadMemU32(0xE000E004, 0x0001 Items, ...) -- CPU_ReadMem(4 bytes @ 0xE000E004) -- Data:  02 00 00 00  returns 0x01 (0000ms, 0581ms total)
T19954 000:809 JLINK_WriteMemEx(0xE0001000, 0x001C Bytes, ..., AccessWidth = 33554436) -- Data:  01 00 00 00 00 00 00 00 00 00 00 00 00 00 00 00 ... -- CPU_WriteMem(28 bytes @ 0xE0001000)  returns 0x1C (0001ms, 0582ms total)
T19954 000:810 JLINK_Halt()  returns 0x00 (0000ms, 0582ms total)
T19954 000:810 JLINK_IsHalted()  returns TRUE (0000ms, 0582ms total)
T19954 000:814 JLINK_WriteMem(0x20000000, 0x0184 Bytes, ...) -- Data:  00 BE 0A E0 0D 78 2D 06 68 40 08 24 40 00 00 D3 ... -- CPU_WriteMem(388 bytes @ 0x20000000)  returns 0x184 (0005ms, 0587ms total)
T19954 000:819 JLINK_WriteReg(R0, 0x08000000)  returns 0x00 (0000ms, 0587ms total)
T19954 000:819 JLINK_WriteReg(R1, 0x00B71B00)  returns 0x00 (0000ms, 0587ms total)
T19954 000:819 JLINK_WriteReg(R2, 0x00000001)  returns 0x00 (0000ms, 0587ms total)
T19954 000:819 JLINK_WriteReg(R3, 0x00000000)  returns 0x00 (0000ms, 0587ms total)
T19954 000:819 JLINK_WriteReg(R4, 0x00000000)  returns 0x00 (0000ms, 0587ms total)
T19954 000:819 JLINK_WriteReg(R5, 0x00000000)  returns 0x00 (0000ms, 0587ms total)
T19954 000:819 JLINK_WriteReg(R6, 0x00000000)  returns 0x00 (0000ms, 0587ms total)
T19954 000:819 JLINK_WriteReg(R7, 0x00000000)  returns 0x00 (0000ms, 0587ms total)
T19954 000:819 JLINK_WriteReg(R8, 0x00000000)  returns 0x00 (0000ms, 0587ms total)
T19954 000:819 JLINK_WriteReg(R9, 0x20000180)  returns 0x00 (0000ms, 0587ms total)
T19954 000:819 JLINK_WriteReg(R10, 0x00000000)  returns 0x00 (0000ms, 0587ms total)
T19954 000:819 JLINK_WriteReg(R11, 0x00000000)  returns 0x00 (0000ms, 0587ms total)
T19954 000:819 JLINK_WriteReg(R12, 0x00000000)  returns 0x00 (0000ms, 0587ms total)
T19954 000:819 JLINK_WriteReg(R13 (SP), 0x20001000)  returns 0x00 (0000ms, 0587ms total)
T19954 000:819 JLINK_WriteReg(R14, 0x20000001)  returns 0x00 (0000ms, 0587ms total)
T19954 000:819 JLINK_WriteReg(R15 (PC), 0x20000054)  returns 0x00 (0000ms, 0587ms total)
T19954 000:819 JLINK_WriteReg(XPSR, 0x01000000)  returns 0x00 (0000ms, 0587ms total)
T19954 000:819 JLINK_WriteReg(MSP, 0x20001000)  returns 0x00 (0000ms, 0587ms total)
T19954 000:819 JLINK_WriteReg(PSP, 0x20001000)  returns 0x00 (0000ms, 0587ms total)
T19954 000:819 JLINK_WriteReg(CFBP, 0x00000000)  returns 0x00 (0000ms, 0587ms total)
T19954 000:819 JLINK_SetBPEx(Addr = 0x20000000, Type = 0xFFFFFFF2) -- CPU_ReadMem(4 bytes @ 0x20000000) -- CPU_WriteMem(4 bytes @ 0x20000000) -- CPU_ReadMem(4 bytes @ 0x20000000) -- CPU_WriteMem(4 bytes @ 0x20000000) -- CPU_ReadMem(2 bytes @ 0x20000000)  returns 0x00000001 (0003ms, 0590ms total)
T19954 000:822 JLINK_Go() -- CPU_WriteMem(2 bytes @ 0x20000000) -- CPU_WriteMem(4 bytes @ 0xE0002008) -- CPU_WriteMem(4 bytes @ 0xE000200C) -- CPU_WriteMem(4 bytes @ 0xE0002010) -- CPU_WriteMem(4 bytes @ 0xE0002014) -- CPU_WriteMem(4 bytes @ 0xE0002018) -- CPU_WriteMem(4 bytes @ 0xE000201C) -- CPU_WriteMem(4 bytes @ 0xE0001004) (0005ms, 0595ms total)
T19954 000:827 JLINK_IsHalted() -- CPU_ReadMem(2 bytes @ 0x20000000)  returns TRUE (0004ms, 0599ms total)
T19954 000:831 JLINK_ReadReg(R15 (PC))  returns 0x20000000 (0000ms, 0595ms total)
T19954 000:831 JLINK_ClrBPEx(BPHandle = 0x00000001)  returns 0x00 (0000ms, 0595ms total)
T19954 000:831 JLINK_ReadReg(R0)  returns 0x00000000 (0000ms, 0595ms total)
T19954 000:832 JLINK_WriteReg(R0, 0x08000000)  returns 0x00 (0000ms, 0595ms total)
T19954 000:832 JLINK_WriteReg(R1, 0x00004000)  returns 0x00 (0000ms, 0595ms total)
T19954 000:832 JLINK_WriteReg(R2, 0x000000FF)  returns 0x00 (0000ms, 0595ms total)
T19954 000:832 JLINK_WriteReg(R3, 0x00000000)  returns 0x00 (0000ms, 0595ms total)
T19954 000:832 JLINK_WriteReg(R4, 0x00000000)  returns 0x00 (0000ms, 0595ms total)
T19954 000:832 JLINK_WriteReg(R5, 0x00000000)  returns 0x00 (0000ms, 0595ms total)
T19954 000:832 JLINK_WriteReg(R6, 0x00000000)  returns 0x00 (0000ms, 0595ms total)
T19954 000:832 JLINK_WriteReg(R7, 0x00000000)  returns 0x00 (0000ms, 0595ms total)
T19954 000:832 JLINK_WriteReg(R8, 0x00000000)  returns 0x00 (0000ms, 0595ms total)
T19954 000:832 JLINK_WriteReg(R9, 0x20000180)  returns 0x00 (0000ms, 0595ms total)
T19954 000:832 JLINK_WriteReg(R10, 0x00000000)  returns 0x00 (0000ms, 0595ms total)
T19954 000:832 JLINK_WriteReg(R11, 0x00000000)  returns 0x00 (0000ms, 0595ms total)
T19954 000:832 JLINK_WriteReg(R12, 0x00000000)  returns 0x00 (0000ms, 0595ms total)
T19954 000:832 JLINK_WriteReg(R13 (SP), 0x20001000)  returns 0x00 (0000ms, 0595ms total)
T19954 000:832 JLINK_WriteReg(R14, 0x20000001)  returns 0x00 (0000ms, 0595ms total)
T19954 000:832 JLINK_WriteReg(R15 (PC), 0x20000020)  returns 0x00 (0000ms, 0595ms total)
T19954 000:832 JLINK_WriteReg(XPSR, 0x01000000)  returns 0x00 (0000ms, 0595ms total)
T19954 000:832 JLINK_WriteReg(MSP, 0x20001000)  returns 0x00 (0000ms, 0595ms total)
T19954 000:832 JLINK_WriteReg(PSP, 0x20001000)  returns 0x00 (0000ms, 0595ms total)
T19954 000:832 JLINK_WriteReg(CFBP, 0x00000000)  returns 0x00 (0000ms, 0595ms total)
T19954 000:832 JLINK_SetBPEx(Addr = 0x20000000, Type = 0xFFFFFFF2)  returns 0x00000002 (0000ms, 0595ms total)
T19954 000:832 JLINK_Go() (0001ms, 0596ms total)
T19954 000:835 JLINK_IsHalted() -- CPU_ReadMem(2 bytes @ 0x20000000)  returns TRUE (0003ms, 0599ms total)
T19954 000:838 JLINK_ReadReg(R15 (PC))  returns 0x20000000 (0000ms, 0596ms total)
T19954 000:838 JLINK_ClrBPEx(BPHandle = 0x00000002)  returns 0x00 (0000ms, 0596ms total)
T19954 000:838 JLINK_ReadReg(R0)  returns 0x00000001 (0000ms, 0596ms total)
T19954 000:838 JLINK_WriteReg(R0, 0x08000000)  returns 0x00 (0000ms, 0596ms total)
T19954 000:838 JLINK_WriteReg(R1, 0x00004000)  returns 0x00 (0000ms, 0596ms total)
T19954 000:838 JLINK_WriteReg(R2, 0x000000FF)  returns 0x00 (0000ms, 0596ms total)
T19954 000:838 JLINK_WriteReg(R3, 0x00000000)  returns 0x00 (0000ms, 0596ms total)
T19954 000:838 JLINK_WriteReg(R4, 0x00000000)  returns 0x00 (0000ms, 0596ms total)
T19954 000:838 JLINK_WriteReg(R5, 0x00000000)  returns 0x00 (0000ms, 0596ms total)
T19954 000:838 JLINK_WriteReg(R6, 0x00000000)  returns 0x00 (0000ms, 0596ms total)
T19954 000:838 JLINK_WriteReg(R7, 0x00000000)  returns 0x00 (0000ms, 0596ms total)
T19954 000:838 JLINK_WriteReg(R8, 0x00000000)  returns 0x00 (0000ms, 0596ms total)
T19954 000:838 JLINK_WriteReg(R9, 0x20000180)  returns 0x00 (0000ms, 0596ms total)
T19954 000:838 JLINK_WriteReg(R10, 0x00000000)  returns 0x00 (0000ms, 0596ms total)
T19954 000:838 JLINK_WriteReg(R11, 0x00000000)  returns 0x00 (0000ms, 0596ms total)
T19954 000:838 JLINK_WriteReg(R12, 0x00000000)  returns 0x00 (0000ms, 0596ms total)
T19954 000:838 JLINK_WriteReg(R13 (SP), 0x20001000)  returns 0x00 (0000ms, 0596ms total)
T19954 000:838 JLINK_WriteReg(R14, 0x20000001)  returns 0x00 (0000ms, 0596ms total)
T19954 000:838 JLINK_WriteReg(R15 (PC), 0x200000C0)  returns 0x00 (0000ms, 0596ms total)
T19954 000:838 JLINK_WriteReg(XPSR, 0x01000000)  returns 0x00 (0000ms, 0596ms total)
T19954 000:838 JLINK_WriteReg(MSP, 0x20001000)  returns 0x00 (0000ms, 0596ms total)
T19954 000:838 JLINK_WriteReg(PSP, 0x20001000)  returns 0x00 (0000ms, 0596ms total)
T19954 000:838 JLINK_WriteReg(CFBP, 0x00000000)  returns 0x00 (0000ms, 0596ms total)
T19954 000:838 JLINK_SetBPEx(Addr = 0x20000000, Type = 0xFFFFFFF2)  returns 0x00000003 (0000ms, 0596ms total)
T19954 000:838 JLINK_Go() (0002ms, 0598ms total)
T19954 000:840 JLINK_IsHalted()  returns FALSE (0000ms, 0598ms total)
T19954 000:880 JLINK_IsHalted()  returns FALSE (0000ms, 0598ms total)
T19954 000:882 JLINK_IsHalted()  returns FALSE (0000ms, 0598ms total)
T19954 000:884 JLINK_IsHalted()  returns FALSE (0000ms, 0598ms total)
T19954 000:886 JLINK_IsHalted()  returns FALSE (0000ms, 0598ms total)
T19954 000:888 JLINK_IsHalted()  returns FALSE (0000ms, 0598ms total)
T19954 000:890 JLINK_IsHalted()  returns FALSE (0000ms, 0598ms total)
T19954 000:892 JLINK_IsHalted()  returns FALSE (0000ms, 0598ms total)
T19954 000:894 JLINK_IsHalted()  returns FALSE (0001ms, 0599ms total)
T19954 000:897 JLINK_IsHalted()  returns FALSE (0000ms, 0598ms total)
T19954 000:899 JLINK_IsHalted()  returns FALSE (0000ms, 0598ms total)
T19954 000:901 JLINK_IsHalted()  returns FALSE (0000ms, 0598ms total)
T19954 000:903 JLINK_IsHalted()  returns FALSE (0000ms, 0598ms total)
T19954 000:905 JLINK_IsHalted()  returns FALSE (0000ms, 0598ms total)
T19954 000:907 JLINK_IsHalted()  returns FALSE (0000ms, 0598ms total)
T19954 000:909 JLINK_IsHalted()  returns FALSE (0000ms, 0598ms total)
T19954 000:911 JLINK_IsHalted()  returns FALSE (0000ms, 0598ms total)
T19954 000:912 JLINK_IsHalted()  returns FALSE (0000ms, 0598ms total)
T19954 000:914 JLINK_IsHalted()  returns FALSE (0000ms, 0598ms total)
T19954 000:916 JLINK_IsHalted()  returns FALSE (0000ms, 0598ms total)
T19954 000:918 JLINK_IsHalted()  returns FALSE (0000ms, 0598ms total)
T19954 000:920 JLINK_IsHalted()  returns FALSE (0000ms, 0598ms total)
T19954 000:922 JLINK_IsHalted()  returns FALSE (0000ms, 0598ms total)
T19954 000:925 JLINK_IsHalted()  returns FALSE (0000ms, 0598ms total)
T19954 000:927 JLINK_IsHalted()  returns FALSE (0000ms, 0598ms total)
T19954 000:929 JLINK_IsHalted()  returns FALSE (0000ms, 0598ms total)
T19954 000:930 JLINK_IsHalted()  returns FALSE (0000ms, 0598ms total)
T19954 000:933 JLINK_IsHalted()  returns FALSE (0000ms, 0598ms total)
T19954 000:935 JLINK_IsHalted()  returns FALSE (0000ms, 0598ms total)
T19954 000:937 JLINK_IsHalted()  returns FALSE (0000ms, 0598ms total)
T19954 000:939 JLINK_IsHalted()  returns FALSE (0000ms, 0598ms total)
T19954 000:940 JLINK_IsHalted()  returns FALSE (0000ms, 0598ms total)
T19954 000:943 JLINK_IsHalted()  returns FALSE (0000ms, 0598ms total)
T19954 000:945 JLINK_IsHalted()  returns FALSE (0000ms, 0598ms total)
T19954 000:947 JLINK_IsHalted()  returns FALSE (0000ms, 0598ms total)
T19954 000:949 JLINK_IsHalted()  returns FALSE (0000ms, 0598ms total)
T19954 000:951 JLINK_IsHalted()  returns FALSE (0000ms, 0598ms total)
T19954 000:953 JLINK_IsHalted()  returns FALSE (0000ms, 0598ms total)
T19954 000:955 JLINK_IsHalted()  returns FALSE (0000ms, 0598ms total)
T19954 000:959 JLINK_IsHalted()  returns FALSE (0000ms, 0598ms total)
T19954 000:961 JLINK_IsHalted()  returns FALSE (0000ms, 0598ms total)
T19954 000:964 JLINK_IsHalted()  returns FALSE (0000ms, 0598ms total)
T19954 000:966 JLINK_IsHalted()  returns FALSE (0000ms, 0598ms total)
T19954 000:968 JLINK_IsHalted()  returns FALSE (0000ms, 0598ms total)
T19954 000:970 JLINK_IsHalted()  returns FALSE (0000ms, 0598ms total)
T19954 000:971 JLINK_IsHalted()  returns FALSE (0000ms, 0598ms total)
T19954 000:974 JLINK_IsHalted()  returns FALSE (0000ms, 0598ms total)
T19954 000:976 JLINK_IsHalted()  returns FALSE (0000ms, 0598ms total)
T19954 000:978 JLINK_IsHalted()  returns FALSE (0000ms, 0598ms total)
T19954 000:980 JLINK_IsHalted()  returns FALSE (0000ms, 0598ms total)
T19954 000:982 JLINK_IsHalted()  returns FALSE (0000ms, 0598ms total)
T19954 000:984 JLINK_IsHalted()  returns FALSE (0000ms, 0598ms total)
T19954 000:986 JLINK_IsHalted()  returns FALSE (0000ms, 0598ms total)
T19954 000:988 JLINK_IsHalted()  returns FALSE (0000ms, 0598ms total)
T19954 000:989 JLINK_IsHalted()  returns FALSE (0000ms, 0598ms total)
T19954 000:991 JLINK_IsHalted()  returns FALSE (0000ms, 0598ms total)
T19954 000:993 JLINK_IsHalted()  returns FALSE (0000ms, 0598ms total)
T19954 000:995 JLINK_IsHalted()  returns FALSE (0000ms, 0598ms total)
T19954 000:997 JLINK_IsHalted()  returns FALSE (0000ms, 0598ms total)
T19954 000:999 JLINK_IsHalted()  returns FALSE (0000ms, 0598ms total)
T19954 001:001 JLINK_IsHalted()  returns FALSE (0000ms, 0598ms total)
T19954 001:003 JLINK_IsHalted()  returns FALSE (0000ms, 0598ms total)
T19954 001:005 JLINK_IsHalted()  returns FALSE (0000ms, 0598ms total)
T19954 001:007 JLINK_IsHalted()  returns FALSE (0000ms, 0598ms total)
T19954 001:009 JLINK_IsHalted()  returns FALSE (0000ms, 0598ms total)
T19954 001:011 JLINK_IsHalted()  returns FALSE (0000ms, 0598ms total)
T19954 001:013 JLINK_IsHalted()  returns FALSE (0000ms, 0598ms total)
T19954 001:015 JLINK_IsHalted()  returns FALSE (0000ms, 0598ms total)
T19954 001:017 JLINK_IsHalted()  returns FALSE (0000ms, 0598ms total)
T19954 001:019 JLINK_IsHalted()  returns FALSE (0000ms, 0598ms total)
T19954 001:021 JLINK_IsHalted()  returns FALSE (0000ms, 0598ms total)
T19954 001:023 JLINK_IsHalted()  returns FALSE (0001ms, 0599ms total)
T19954 001:026 JLINK_IsHalted()  returns FALSE (0000ms, 0598ms total)
T19954 001:027 JLINK_IsHalted()  returns FALSE (0000ms, 0598ms total)
T19954 001:030 JLINK_IsHalted()  returns FALSE (0000ms, 0598ms total)
T19954 001:031 JLINK_IsHalted()  returns FALSE (0000ms, 0598ms total)
T19954 001:033 JLINK_IsHalted()  returns FALSE (0001ms, 0599ms total)
T19954 001:036 JLINK_IsHalted()  returns FALSE (0000ms, 0598ms total)
T19954 001:038 JLINK_IsHalted()  returns FALSE (0000ms, 0598ms total)
T19954 001:040 JLINK_IsHalted()  returns FALSE (0000ms, 0598ms total)
T19954 001:042 JLINK_IsHalted()  returns FALSE (0000ms, 0598ms total)
T19954 001:044 JLINK_IsHalted()  returns FALSE (0000ms, 0598ms total)
T19954 001:046 JLINK_IsHalted()  returns FALSE (0000ms, 0598ms total)
T19954 001:048 JLINK_IsHalted()  returns FALSE (0000ms, 0598ms total)
T19954 001:050 JLINK_IsHalted()  returns FALSE (0000ms, 0598ms total)
T19954 001:052 JLINK_IsHalted()  returns FALSE (0000ms, 0598ms total)
T19954 001:054 JLINK_IsHalted()  returns FALSE (0000ms, 0598ms total)
T19954 001:056 JLINK_IsHalted()  returns FALSE (0000ms, 0598ms total)
T19954 001:058 JLINK_IsHalted()  returns FALSE (0000ms, 0598ms total)
T19954 001:060 JLINK_IsHalted()  returns FALSE (0000ms, 0598ms total)
T19954 001:062 JLINK_IsHalted()  returns FALSE (0000ms, 0598ms total)
T19954 001:064 JLINK_IsHalted()  returns FALSE (0000ms, 0598ms total)
T19954 001:068 JLINK_IsHalted()  returns FALSE (0000ms, 0598ms total)
T19954 001:070 JLINK_IsHalted()  returns FALSE (0000ms, 0598ms total)
T19954 001:072 JLINK_IsHalted()  returns FALSE (0000ms, 0598ms total)
T19954 001:074 JLINK_IsHalted()  returns FALSE (0000ms, 0598ms total)
T19954 001:076 JLINK_IsHalted()  returns FALSE (0000ms, 0598ms total)
T19954 001:078 JLINK_IsHalted()  returns FALSE (0000ms, 0598ms total)
T19954 001:080 JLINK_IsHalted()  returns FALSE (0000ms, 0598ms total)
T19954 001:082 JLINK_IsHalted()  returns FALSE (0000ms, 0598ms total)
T19954 001:084 JLINK_IsHalted()  returns FALSE (0000ms, 0598ms total)
T19954 001:086 JLINK_IsHalted()  returns FALSE (0000ms, 0598ms total)
T19954 001:088 JLINK_IsHalted()  returns FALSE (0000ms, 0598ms total)
T19954 001:091 JLINK_IsHalted()  returns FALSE (0000ms, 0598ms total)
T19954 001:093 JLINK_IsHalted()  returns FALSE (0000ms, 0598ms total)
T19954 001:095 JLINK_IsHalted()  returns FALSE (0000ms, 0598ms total)
T19954 001:099 JLINK_IsHalted()  returns FALSE (0000ms, 0598ms total)
T19954 001:101 JLINK_IsHalted()  returns FALSE (0000ms, 0598ms total)
T19954 001:103 JLINK_IsHalted()  returns FALSE (0000ms, 0598ms total)
T19954 001:107 JLINK_IsHalted()  returns FALSE (0000ms, 0598ms total)
T19954 001:109 JLINK_IsHalted()  returns FALSE (0000ms, 0598ms total)
T19954 001:112 JLINK_IsHalted()  returns FALSE (0000ms, 0598ms total)
T19954 001:114 JLINK_IsHalted()  returns FALSE (0000ms, 0598ms total)
T19954 001:116 JLINK_IsHalted()  returns FALSE (0000ms, 0598ms total)
T19954 001:120 JLINK_IsHalted()  returns FALSE (0000ms, 0598ms total)
T19954 001:122 JLINK_IsHalted()  returns FALSE (0000ms, 0598ms total)
T19954 001:123 JLINK_IsHalted()  returns FALSE (0000ms, 0598ms total)
T19954 001:127 JLINK_IsHalted()  returns FALSE (0000ms, 0598ms total)
T19954 001:129 JLINK_IsHalted()  returns FALSE (0000ms, 0598ms total)
T19954 001:131 JLINK_IsHalted()  returns FALSE (0000ms, 0598ms total)
T19954 001:136 JLINK_IsHalted()  returns FALSE (0000ms, 0598ms total)
T19954 001:138 JLINK_IsHalted()  returns FALSE (0000ms, 0598ms total)
T19954 001:141 JLINK_IsHalted()  returns FALSE (0000ms, 0598ms total)
T19954 001:143 JLINK_IsHalted()  returns FALSE (0000ms, 0598ms total)
T19954 001:145 JLINK_IsHalted()  returns FALSE (0000ms, 0598ms total)
T19954 001:149 JLINK_IsHalted()  returns FALSE (0000ms, 0598ms total)
T19954 001:151 JLINK_IsHalted()  returns FALSE (0000ms, 0598ms total)
T19954 001:154 JLINK_IsHalted()  returns FALSE (0000ms, 0598ms total)
T19954 001:156 JLINK_IsHalted()  returns FALSE (0000ms, 0598ms total)
T19954 001:158 JLINK_IsHalted()  returns FALSE (0000ms, 0598ms total)
T19954 001:162 JLINK_IsHalted()  returns FALSE (0000ms, 0598ms total)
T19954 001:165 JLINK_IsHalted()  returns FALSE (0000ms, 0598ms total)
T19954 001:167 JLINK_IsHalted()  returns FALSE (0000ms, 0598ms total)
T19954 001:171 JLINK_IsHalted() -- CPU_ReadMem(2 bytes @ 0x20000000)  returns TRUE (0003ms, 0601ms total)
T19954 001:174 JLINK_ReadReg(R15 (PC))  returns 0x20000000 (0000ms, 0598ms total)
T19954 001:174 JLINK_ClrBPEx(BPHandle = 0x00000003)  returns 0x00 (0000ms, 0598ms total)
T19954 001:174 JLINK_ReadReg(R0)  returns 0x00000000 (0000ms, 0598ms total)
T19954 001:175 JLINK_WriteReg(R0, 0x00000001)  returns 0x00 (0000ms, 0598ms total)
T19954 001:175 JLINK_WriteReg(R1, 0x00004000)  returns 0x00 (0000ms, 0598ms total)
T19954 001:175 JLINK_WriteReg(R2, 0x000000FF)  returns 0x00 (0000ms, 0598ms total)
T19954 001:175 JLINK_WriteReg(R3, 0x00000000)  returns 0x00 (0000ms, 0598ms total)
T19954 001:175 JLINK_WriteReg(R4, 0x00000000)  returns 0x00 (0000ms, 0598ms total)
T19954 001:175 JLINK_WriteReg(R5, 0x00000000)  returns 0x00 (0000ms, 0598ms total)
T19954 001:175 JLINK_WriteReg(R6, 0x00000000)  returns 0x00 (0000ms, 0598ms total)
T19954 001:175 JLINK_WriteReg(R7, 0x00000000)  returns 0x00 (0000ms, 0598ms total)
T19954 001:175 JLINK_WriteReg(R8, 0x00000000)  returns 0x00 (0000ms, 0598ms total)
T19954 001:175 JLINK_WriteReg(R9, 0x20000180)  returns 0x00 (0000ms, 0598ms total)
T19954 001:175 JLINK_WriteReg(R10, 0x00000000)  returns 0x00 (0000ms, 0598ms total)
T19954 001:175 JLINK_WriteReg(R11, 0x00000000)  returns 0x00 (0000ms, 0598ms total)
T19954 001:175 JLINK_WriteReg(R12, 0x00000000)  returns 0x00 (0000ms, 0598ms total)
T19954 001:175 JLINK_WriteReg(R13 (SP), 0x20001000)  returns 0x00 (0000ms, 0598ms total)
T19954 001:175 JLINK_WriteReg(R14, 0x20000001)  returns 0x00 (0000ms, 0598ms total)
T19954 001:175 JLINK_WriteReg(R15 (PC), 0x20000086)  returns 0x00 (0000ms, 0598ms total)
T19954 001:175 JLINK_WriteReg(XPSR, 0x01000000)  returns 0x00 (0000ms, 0598ms total)
T19954 001:175 JLINK_WriteReg(MSP, 0x20001000)  returns 0x00 (0000ms, 0598ms total)
T19954 001:175 JLINK_WriteReg(PSP, 0x20001000)  returns 0x00 (0000ms, 0598ms total)
T19954 001:175 JLINK_WriteReg(CFBP, 0x00000000)  returns 0x00 (0000ms, 0598ms total)
T19954 001:175 JLINK_SetBPEx(Addr = 0x20000000, Type = 0xFFFFFFF2)  returns 0x00000004 (0000ms, 0598ms total)
T19954 001:175 JLINK_Go() (0002ms, 0600ms total)
T19954 001:177 JLINK_IsHalted() -- CPU_ReadMem(2 bytes @ 0x20000000)  returns TRUE (0004ms, 0604ms total)
T19954 001:181 JLINK_ReadReg(R15 (PC))  returns 0x20000000 (0000ms, 0600ms total)
T19954 001:181 JLINK_ClrBPEx(BPHandle = 0x00000004)  returns 0x00 (0000ms, 0600ms total)
T19954 001:181 JLINK_ReadReg(R0)  returns 0x00000000 (0000ms, 0600ms total)
T19954 001:239 JLINK_WriteMem(0x20000000, 0x0184 Bytes, ...) -- Data:  00 BE 0A E0 0D 78 2D 06 68 40 08 24 40 00 00 D3 ... -- CPU_WriteMem(388 bytes @ 0x20000000)  returns 0x184 (0004ms, 0604ms total)
T19954 001:243 JLINK_WriteReg(R0, 0x08000000)  returns 0x00 (0000ms, 0604ms total)
T19954 001:243 JLINK_WriteReg(R1, 0x00B71B00)  returns 0x00 (0000ms, 0604ms total)
T19954 001:243 JLINK_WriteReg(R2, 0x00000002)  returns 0x00 (0000ms, 0604ms total)
T19954 001:243 JLINK_WriteReg(R3, 0x00000000)  returns 0x00 (0000ms, 0604ms total)
T19954 001:243 JLINK_WriteReg(R4, 0x00000000)  returns 0x00 (0000ms, 0604ms total)
T19954 001:243 JLINK_WriteReg(R5, 0x00000000)  returns 0x00 (0000ms, 0604ms total)
T19954 001:243 JLINK_WriteReg(R6, 0x00000000)  returns 0x00 (0000ms, 0604ms total)
T19954 001:243 JLINK_WriteReg(R7, 0x00000000)  returns 0x00 (0000ms, 0604ms total)
T19954 001:243 JLINK_WriteReg(R8, 0x00000000)  returns 0x00 (0000ms, 0604ms total)
T19954 001:243 JLINK_WriteReg(R9, 0x20000180)  returns 0x00 (0000ms, 0604ms total)
T19954 001:243 JLINK_WriteReg(R10, 0x00000000)  returns 0x00 (0000ms, 0604ms total)
T19954 001:243 JLINK_WriteReg(R11, 0x00000000)  returns 0x00 (0000ms, 0604ms total)
T19954 001:243 JLINK_WriteReg(R12, 0x00000000)  returns 0x00 (0000ms, 0604ms total)
T19954 001:243 JLINK_WriteReg(R13 (SP), 0x20001000)  returns 0x00 (0000ms, 0604ms total)
T19954 001:244 JLINK_WriteReg(R14, 0x20000001)  returns 0x00 (0000ms, 0605ms total)
T19954 001:244 JLINK_WriteReg(R15 (PC), 0x20000054)  returns 0x00 (0000ms, 0605ms total)
T19954 001:244 JLINK_WriteReg(XPSR, 0x01000000)  returns 0x00 (0000ms, 0605ms total)
T19954 001:244 JLINK_WriteReg(MSP, 0x20001000)  returns 0x00 (0000ms, 0605ms total)
T19954 001:244 JLINK_WriteReg(PSP, 0x20001000)  returns 0x00 (0000ms, 0605ms total)
T19954 001:244 JLINK_WriteReg(CFBP, 0x00000000)  returns 0x00 (0000ms, 0605ms total)
T19954 001:244 JLINK_SetBPEx(Addr = 0x20000000, Type = 0xFFFFFFF2) -- CPU_ReadMem(4 bytes @ 0x20000000) -- CPU_WriteMem(4 bytes @ 0x20000000) -- CPU_ReadMem(4 bytes @ 0x20000000) -- CPU_WriteMem(4 bytes @ 0x20000000) -- CPU_ReadMem(2 bytes @ 0x20000000)  returns 0x00000005 (0002ms, 0607ms total)
T19954 001:246 JLINK_Go() -- CPU_WriteMem(2 bytes @ 0x20000000) (0003ms, 0610ms total)
T19954 001:249 JLINK_IsHalted() -- CPU_ReadMem(2 bytes @ 0x20000000)  returns TRUE (0004ms, 0614ms total)
T19954 001:253 JLINK_ReadReg(R15 (PC))  returns 0x20000000 (0000ms, 0610ms total)
T19954 001:253 JLINK_ClrBPEx(BPHandle = 0x00000005)  returns 0x00 (0000ms, 0610ms total)
T19954 001:253 JLINK_ReadReg(R0)  returns 0x00000000 (0000ms, 0610ms total)
T19954 001:253 JLINK_WriteMem(0x20000184, 0x027C Bytes, ...) -- Data:  18 07 00 20 9D 01 00 08 9D 09 00 08 95 09 00 08 ... -- CPU_WriteMem(636 bytes @ 0x20000184)  returns 0x27C (0008ms, 0618ms total)
T19954 001:261 JLINK_WriteMem(0x20000400, 0x0184 Bytes, ...) -- Data:  9B 46 88 46 06 46 81 46 40 24 1B E0 28 46 41 46 ... -- CPU_WriteMem(388 bytes @ 0x20000400)  returns 0x184 (0006ms, 0624ms total)
T19954 001:267 JLINK_WriteReg(R0, 0x08000000)  returns 0x00 (0000ms, 0624ms total)
T19954 001:267 JLINK_WriteReg(R1, 0x00000400)  returns 0x00 (0000ms, 0624ms total)
T19954 001:267 JLINK_WriteReg(R2, 0x20000184)  returns 0x00 (0000ms, 0624ms total)
T19954 001:267 JLINK_WriteReg(R3, 0x00000000)  returns 0x00 (0000ms, 0624ms total)
T19954 001:267 JLINK_WriteReg(R4, 0x00000000)  returns 0x00 (0000ms, 0624ms total)
T19954 001:267 JLINK_WriteReg(R5, 0x00000000)  returns 0x00 (0000ms, 0624ms total)
T19954 001:267 JLINK_WriteReg(R6, 0x00000000)  returns 0x00 (0000ms, 0624ms total)
T19954 001:267 JLINK_WriteReg(R7, 0x00000000)  returns 0x00 (0000ms, 0624ms total)
T19954 001:267 JLINK_WriteReg(R8, 0x00000000)  returns 0x00 (0000ms, 0624ms total)
T19954 001:267 JLINK_WriteReg(R9, 0x20000180)  returns 0x00 (0000ms, 0624ms total)
T19954 001:267 JLINK_WriteReg(R10, 0x00000000)  returns 0x00 (0000ms, 0624ms total)
T19954 001:267 JLINK_WriteReg(R11, 0x00000000)  returns 0x00 (0000ms, 0624ms total)
T19954 001:267 JLINK_WriteReg(R12, 0x00000000)  returns 0x00 (0000ms, 0624ms total)
T19954 001:267 JLINK_WriteReg(R13 (SP), 0x20001000)  returns 0x00 (0000ms, 0624ms total)
T19954 001:267 JLINK_WriteReg(R14, 0x20000001)  returns 0x00 (0000ms, 0624ms total)
T19954 001:267 JLINK_WriteReg(R15 (PC), 0x2000010C)  returns 0x00 (0000ms, 0624ms total)
T19954 001:267 JLINK_WriteReg(XPSR, 0x01000000)  returns 0x00 (0000ms, 0624ms total)
T19954 001:267 JLINK_WriteReg(MSP, 0x20001000)  returns 0x00 (0000ms, 0624ms total)
T19954 001:267 JLINK_WriteReg(PSP, 0x20001000)  returns 0x00 (0000ms, 0624ms total)
T19954 001:267 JLINK_WriteReg(CFBP, 0x00000000)  returns 0x00 (0000ms, 0624ms total)
T19954 001:267 JLINK_SetBPEx(Addr = 0x20000000, Type = 0xFFFFFFF2)  returns 0x00000006 (0000ms, 0624ms total)
T19954 001:267 JLINK_Go() (0002ms, 0626ms total)
T19954 001:269 JLINK_IsHalted()  returns FALSE (0000ms, 0626ms total)
T19954 001:273 JLINK_IsHalted()  returns FALSE (0000ms, 0626ms total)
T19954 001:278 JLINK_IsHalted() -- CPU_ReadMem(2 bytes @ 0x20000000)  returns TRUE (0004ms, 0630ms total)
T19954 001:282 JLINK_ReadReg(R15 (PC))  returns 0x20000000 (0000ms, 0626ms total)
T19954 001:282 JLINK_ClrBPEx(BPHandle = 0x00000006)  returns 0x00 (0000ms, 0626ms total)
T19954 001:282 JLINK_ReadReg(R0)  returns 0x00000000 (0000ms, 0626ms total)
T19954 001:282 JLINK_WriteMem(0x20000184, 0x027C Bytes, ...) -- Data:  FF F9 03 B0 BD E8 F0 8F 40 46 21 46 F9 E7 00 1B ... -- CPU_WriteMem(636 bytes @ 0x20000184)  returns 0x27C (0007ms, 0633ms total)
T19954 001:289 JLINK_WriteMem(0x20000400, 0x0184 Bytes, ...) -- Data:  00 F0 3B B8 00 F0 2A B8 30 B5 04 1E 71 F1 00 04 ... -- CPU_WriteMem(388 bytes @ 0x20000400)  returns 0x184 (0007ms, 0640ms total)
T19954 001:296 JLINK_WriteReg(R0, 0x08000400)  returns 0x00 (0000ms, 0640ms total)
T19954 001:296 JLINK_WriteReg(R1, 0x00000400)  returns 0x00 (0000ms, 0640ms total)
T19954 001:296 JLINK_WriteReg(R2, 0x20000184)  returns 0x00 (0000ms, 0640ms total)
T19954 001:296 JLINK_WriteReg(R3, 0x00000000)  returns 0x00 (0000ms, 0640ms total)
T19954 001:296 JLINK_WriteReg(R4, 0x00000000)  returns 0x00 (0000ms, 0640ms total)
T19954 001:296 JLINK_WriteReg(R5, 0x00000000)  returns 0x00 (0000ms, 0640ms total)
T19954 001:296 JLINK_WriteReg(R6, 0x00000000)  returns 0x00 (0000ms, 0640ms total)
T19954 001:296 JLINK_WriteReg(R7, 0x00000000)  returns 0x00 (0000ms, 0640ms total)
T19954 001:296 JLINK_WriteReg(R8, 0x00000000)  returns 0x00 (0000ms, 0640ms total)
T19954 001:296 JLINK_WriteReg(R9, 0x20000180)  returns 0x00 (0000ms, 0640ms total)
T19954 001:296 JLINK_WriteReg(R10, 0x00000000)  returns 0x00 (0000ms, 0640ms total)
T19954 001:296 JLINK_WriteReg(R11, 0x00000000)  returns 0x00 (0000ms, 0640ms total)
T19954 001:296 JLINK_WriteReg(R12, 0x00000000)  returns 0x00 (0000ms, 0640ms total)
T19954 001:296 JLINK_WriteReg(R13 (SP), 0x20001000)  returns 0x00 (0000ms, 0640ms total)
T19954 001:296 JLINK_WriteReg(R14, 0x20000001)  returns 0x00 (0000ms, 0640ms total)
T19954 001:296 JLINK_WriteReg(R15 (PC), 0x2000010C)  returns 0x00 (0000ms, 0640ms total)
T19954 001:296 JLINK_WriteReg(XPSR, 0x01000000)  returns 0x00 (0000ms, 0640ms total)
T19954 001:296 JLINK_WriteReg(MSP, 0x20001000)  returns 0x00 (0000ms, 0640ms total)
T19954 001:296 JLINK_WriteReg(PSP, 0x20001000)  returns 0x00 (0000ms, 0640ms total)
T19954 001:296 JLINK_WriteReg(CFBP, 0x00000000)  returns 0x00 (0000ms, 0640ms total)
T19954 001:296 JLINK_SetBPEx(Addr = 0x20000000, Type = 0xFFFFFFF2)  returns 0x00000007 (0000ms, 0640ms total)
T19954 001:296 JLINK_Go() (0002ms, 0642ms total)
T19954 001:298 JLINK_IsHalted()  returns FALSE (0000ms, 0642ms total)
T19954 001:301 JLINK_IsHalted()  returns FALSE (0000ms, 0642ms total)
T19954 001:308 JLINK_IsHalted() -- CPU_ReadMem(2 bytes @ 0x20000000)  returns TRUE (0003ms, 0645ms total)
T19954 001:311 JLINK_ReadReg(R15 (PC))  returns 0x20000000 (0000ms, 0642ms total)
T19954 001:311 JLINK_ClrBPEx(BPHandle = 0x00000007)  returns 0x00 (0000ms, 0642ms total)
T19954 001:311 JLINK_ReadReg(R0)  returns 0x00000000 (0000ms, 0642ms total)
T19954 001:311 JLINK_WriteMem(0x20000184, 0x027C Bytes, ...) -- Data:  2D E9 F0 4D 92 46 9B 46 11 B1 B1 FA 81 F2 02 E0 ... -- CPU_WriteMem(636 bytes @ 0x20000184)  returns 0x27C (0008ms, 0650ms total)
T19954 001:319 JLINK_WriteMem(0x20000400, 0x0184 Bytes, ...) -- Data:  05 E0 2E 4F 07 60 36 E0 2D 4F 07 60 33 E0 2A 4F ... -- CPU_WriteMem(388 bytes @ 0x20000400)  returns 0x184 (0006ms, 0656ms total)
T19954 001:325 JLINK_WriteReg(R0, 0x08000800)  returns 0x00 (0000ms, 0656ms total)
T19954 001:325 JLINK_WriteReg(R1, 0x00000400)  returns 0x00 (0000ms, 0656ms total)
T19954 001:325 JLINK_WriteReg(R2, 0x20000184)  returns 0x00 (0000ms, 0656ms total)
T19954 001:325 JLINK_WriteReg(R3, 0x00000000)  returns 0x00 (0000ms, 0656ms total)
T19954 001:325 JLINK_WriteReg(R4, 0x00000000)  returns 0x00 (0000ms, 0656ms total)
T19954 001:325 JLINK_WriteReg(R5, 0x00000000)  returns 0x00 (0000ms, 0656ms total)
T19954 001:325 JLINK_WriteReg(R6, 0x00000000)  returns 0x00 (0000ms, 0656ms total)
T19954 001:325 JLINK_WriteReg(R7, 0x00000000)  returns 0x00 (0000ms, 0656ms total)
T19954 001:325 JLINK_WriteReg(R8, 0x00000000)  returns 0x00 (0000ms, 0656ms total)
T19954 001:325 JLINK_WriteReg(R9, 0x20000180)  returns 0x00 (0000ms, 0656ms total)
T19954 001:325 JLINK_WriteReg(R10, 0x00000000)  returns 0x00 (0000ms, 0656ms total)
T19954 001:325 JLINK_WriteReg(R11, 0x00000000)  returns 0x00 (0000ms, 0656ms total)
T19954 001:325 JLINK_WriteReg(R12, 0x00000000)  returns 0x00 (0000ms, 0656ms total)
T19954 001:325 JLINK_WriteReg(R13 (SP), 0x20001000)  returns 0x00 (0000ms, 0656ms total)
T19954 001:325 JLINK_WriteReg(R14, 0x20000001)  returns 0x00 (0000ms, 0656ms total)
T19954 001:325 JLINK_WriteReg(R15 (PC), 0x2000010C)  returns 0x00 (0000ms, 0656ms total)
T19954 001:325 JLINK_WriteReg(XPSR, 0x01000000)  returns 0x00 (0000ms, 0656ms total)
T19954 001:325 JLINK_WriteReg(MSP, 0x20001000)  returns 0x00 (0000ms, 0656ms total)
T19954 001:325 JLINK_WriteReg(PSP, 0x20001000)  returns 0x00 (0000ms, 0656ms total)
T19954 001:325 JLINK_WriteReg(CFBP, 0x00000000)  returns 0x00 (0000ms, 0656ms total)
T19954 001:325 JLINK_SetBPEx(Addr = 0x20000000, Type = 0xFFFFFFF2)  returns 0x00000008 (0000ms, 0656ms total)
T19954 001:325 JLINK_Go() (0002ms, 0658ms total)
T19954 001:327 JLINK_IsHalted()  returns FALSE (0000ms, 0658ms total)
T19954 001:335 JLINK_IsHalted() -- CPU_ReadMem(2 bytes @ 0x20000000)  returns TRUE (0003ms, 0661ms total)
T19954 001:338 JLINK_ReadReg(R15 (PC))  returns 0x20000000 (0000ms, 0658ms total)
T19954 001:338 JLINK_ClrBPEx(BPHandle = 0x00000008)  returns 0x00 (0000ms, 0658ms total)
T19954 001:338 JLINK_ReadReg(R0)  returns 0x00000000 (0000ms, 0658ms total)
T19954 001:339 JLINK_WriteMem(0x20000184, 0x027C Bytes, ...) -- Data:  03 00 08 49 08 31 08 60 08 46 00 68 40 F0 02 00 ... -- CPU_WriteMem(636 bytes @ 0x20000184)  returns 0x27C (0009ms, 0667ms total)
T19954 001:348 JLINK_WriteMem(0x20000400, 0x0184 Bytes, ...) -- Data:  04 43 08 E0 32 20 00 EB 08 10 64 21 B0 FB F1 F0 ... -- CPU_WriteMem(388 bytes @ 0x20000400)  returns 0x184 (0005ms, 0672ms total)
T19954 001:353 JLINK_WriteReg(R0, 0x08000C00)  returns 0x00 (0000ms, 0672ms total)
T19954 001:353 JLINK_WriteReg(R1, 0x00000400)  returns 0x00 (0000ms, 0672ms total)
T19954 001:353 JLINK_WriteReg(R2, 0x20000184)  returns 0x00 (0000ms, 0672ms total)
T19954 001:353 JLINK_WriteReg(R3, 0x00000000)  returns 0x00 (0000ms, 0672ms total)
T19954 001:353 JLINK_WriteReg(R4, 0x00000000)  returns 0x00 (0000ms, 0672ms total)
T19954 001:353 JLINK_WriteReg(R5, 0x00000000)  returns 0x00 (0000ms, 0672ms total)
T19954 001:353 JLINK_WriteReg(R6, 0x00000000)  returns 0x00 (0000ms, 0672ms total)
T19954 001:353 JLINK_WriteReg(R7, 0x00000000)  returns 0x00 (0000ms, 0672ms total)
T19954 001:353 JLINK_WriteReg(R8, 0x00000000)  returns 0x00 (0000ms, 0672ms total)
T19954 001:353 JLINK_WriteReg(R9, 0x20000180)  returns 0x00 (0000ms, 0672ms total)
T19954 001:353 JLINK_WriteReg(R10, 0x00000000)  returns 0x00 (0000ms, 0672ms total)
T19954 001:353 JLINK_WriteReg(R11, 0x00000000)  returns 0x00 (0000ms, 0672ms total)
T19954 001:353 JLINK_WriteReg(R12, 0x00000000)  returns 0x00 (0000ms, 0672ms total)
T19954 001:353 JLINK_WriteReg(R13 (SP), 0x20001000)  returns 0x00 (0000ms, 0672ms total)
T19954 001:353 JLINK_WriteReg(R14, 0x20000001)  returns 0x00 (0000ms, 0672ms total)
T19954 001:353 JLINK_WriteReg(R15 (PC), 0x2000010C)  returns 0x00 (0000ms, 0672ms total)
T19954 001:353 JLINK_WriteReg(XPSR, 0x01000000)  returns 0x00 (0000ms, 0672ms total)
T19954 001:353 JLINK_WriteReg(MSP, 0x20001000)  returns 0x00 (0000ms, 0672ms total)
T19954 001:353 JLINK_WriteReg(PSP, 0x20001000)  returns 0x00 (0000ms, 0672ms total)
T19954 001:353 JLINK_WriteReg(CFBP, 0x00000000)  returns 0x00 (0000ms, 0672ms total)
T19954 001:353 JLINK_SetBPEx(Addr = 0x20000000, Type = 0xFFFFFFF2)  returns 0x00000009 (0000ms, 0672ms total)
T19954 001:353 JLINK_Go() (0002ms, 0674ms total)
T19954 001:355 JLINK_IsHalted()  returns FALSE (0000ms, 0674ms total)
T19954 001:363 JLINK_IsHalted() -- CPU_ReadMem(2 bytes @ 0x20000000)  returns TRUE (0003ms, 0677ms total)
T19954 001:366 JLINK_ReadReg(R15 (PC))  returns 0x20000000 (0000ms, 0674ms total)
T19954 001:366 JLINK_ClrBPEx(BPHandle = 0x00000009)  returns 0x00 (0000ms, 0674ms total)
T19954 001:366 JLINK_ReadReg(R0)  returns 0x00000000 (0000ms, 0674ms total)
T19954 001:366 JLINK_WriteMem(0x20000184, 0x027C Bytes, ...) -- Data:  FF F7 28 FB 10 24 09 E0 00 2C 0A DB 0A 22 00 23 ... -- CPU_WriteMem(636 bytes @ 0x20000184)  returns 0x27C (0008ms, 0682ms total)
T19954 001:374 JLINK_WriteMem(0x20000400, 0x0184 Bytes, ...) -- Data:  17 99 90 47 B8 F1 01 08 F7 D2 5B 46 21 46 38 46 ... -- CPU_WriteMem(388 bytes @ 0x20000400)  returns 0x184 (0006ms, 0688ms total)
T19954 001:380 JLINK_WriteReg(R0, 0x08001000)  returns 0x00 (0000ms, 0688ms total)
T19954 001:380 JLINK_WriteReg(R1, 0x00000400)  returns 0x00 (0000ms, 0688ms total)
T19954 001:380 JLINK_WriteReg(R2, 0x20000184)  returns 0x00 (0000ms, 0688ms total)
T19954 001:380 JLINK_WriteReg(R3, 0x00000000)  returns 0x00 (0000ms, 0688ms total)
T19954 001:380 JLINK_WriteReg(R4, 0x00000000)  returns 0x00 (0000ms, 0688ms total)
T19954 001:380 JLINK_WriteReg(R5, 0x00000000)  returns 0x00 (0000ms, 0688ms total)
T19954 001:380 JLINK_WriteReg(R6, 0x00000000)  returns 0x00 (0000ms, 0688ms total)
T19954 001:380 JLINK_WriteReg(R7, 0x00000000)  returns 0x00 (0000ms, 0688ms total)
T19954 001:380 JLINK_WriteReg(R8, 0x00000000)  returns 0x00 (0000ms, 0688ms total)
T19954 001:380 JLINK_WriteReg(R9, 0x20000180)  returns 0x00 (0000ms, 0688ms total)
T19954 001:380 JLINK_WriteReg(R10, 0x00000000)  returns 0x00 (0000ms, 0688ms total)
T19954 001:380 JLINK_WriteReg(R11, 0x00000000)  returns 0x00 (0000ms, 0688ms total)
T19954 001:380 JLINK_WriteReg(R12, 0x00000000)  returns 0x00 (0000ms, 0688ms total)
T19954 001:380 JLINK_WriteReg(R13 (SP), 0x20001000)  returns 0x00 (0000ms, 0688ms total)
T19954 001:380 JLINK_WriteReg(R14, 0x20000001)  returns 0x00 (0000ms, 0688ms total)
T19954 001:380 JLINK_WriteReg(R15 (PC), 0x2000010C)  returns 0x00 (0000ms, 0688ms total)
T19954 001:380 JLINK_WriteReg(XPSR, 0x01000000)  returns 0x00 (0000ms, 0688ms total)
T19954 001:380 JLINK_WriteReg(MSP, 0x20001000)  returns 0x00 (0000ms, 0688ms total)
T19954 001:380 JLINK_WriteReg(PSP, 0x20001000)  returns 0x00 (0000ms, 0688ms total)
T19954 001:380 JLINK_WriteReg(CFBP, 0x00000000)  returns 0x00 (0000ms, 0688ms total)
T19954 001:380 JLINK_SetBPEx(Addr = 0x20000000, Type = 0xFFFFFFF2)  returns 0x0000000A (0000ms, 0688ms total)
T19954 001:380 JLINK_Go() (0002ms, 0690ms total)
T19954 001:382 JLINK_IsHalted()  returns FALSE (0001ms, 0691ms total)
T19954 001:390 JLINK_IsHalted() -- CPU_ReadMem(2 bytes @ 0x20000000)  returns TRUE (0003ms, 0693ms total)
T19954 001:393 JLINK_ReadReg(R15 (PC))  returns 0x20000000 (0000ms, 0690ms total)
T19954 001:393 JLINK_ClrBPEx(BPHandle = 0x0000000A)  returns 0x00 (0000ms, 0690ms total)
T19954 001:393 JLINK_ReadReg(R0)  returns 0x00000000 (0000ms, 0690ms total)
T19954 001:393 JLINK_WriteMem(0x20000184, 0x027C Bytes, ...) -- Data:  57 45 02 DD A7 EB 0A 00 00 E0 00 20 00 EB 0A 01 ... -- CPU_WriteMem(636 bytes @ 0x20000184)  returns 0x27C (0008ms, 0698ms total)
T19954 001:401 JLINK_WriteMem(0x20000400, 0x0184 Bytes, ...) -- Data:  01 1D B8 F1 00 01 A8 F1 01 08 F2 DC 02 98 00 28 ... -- CPU_WriteMem(388 bytes @ 0x20000400)  returns 0x184 (0006ms, 0704ms total)
T19954 001:407 JLINK_WriteReg(R0, 0x08001400)  returns 0x00 (0000ms, 0704ms total)
T19954 001:407 JLINK_WriteReg(R1, 0x00000400)  returns 0x00 (0000ms, 0704ms total)
T19954 001:407 JLINK_WriteReg(R2, 0x20000184)  returns 0x00 (0000ms, 0704ms total)
T19954 001:407 JLINK_WriteReg(R3, 0x00000000)  returns 0x00 (0000ms, 0704ms total)
T19954 001:407 JLINK_WriteReg(R4, 0x00000000)  returns 0x00 (0000ms, 0704ms total)
T19954 001:407 JLINK_WriteReg(R5, 0x00000000)  returns 0x00 (0000ms, 0704ms total)
T19954 001:407 JLINK_WriteReg(R6, 0x00000000)  returns 0x00 (0000ms, 0704ms total)
T19954 001:407 JLINK_WriteReg(R7, 0x00000000)  returns 0x00 (0000ms, 0704ms total)
T19954 001:407 JLINK_WriteReg(R8, 0x00000000)  returns 0x00 (0000ms, 0704ms total)
T19954 001:407 JLINK_WriteReg(R9, 0x20000180)  returns 0x00 (0000ms, 0704ms total)
T19954 001:407 JLINK_WriteReg(R10, 0x00000000)  returns 0x00 (0000ms, 0704ms total)
T19954 001:407 JLINK_WriteReg(R11, 0x00000000)  returns 0x00 (0000ms, 0704ms total)
T19954 001:407 JLINK_WriteReg(R12, 0x00000000)  returns 0x00 (0000ms, 0704ms total)
T19954 001:407 JLINK_WriteReg(R13 (SP), 0x20001000)  returns 0x00 (0000ms, 0704ms total)
T19954 001:407 JLINK_WriteReg(R14, 0x20000001)  returns 0x00 (0000ms, 0704ms total)
T19954 001:407 JLINK_WriteReg(R15 (PC), 0x2000010C)  returns 0x00 (0000ms, 0704ms total)
T19954 001:407 JLINK_WriteReg(XPSR, 0x01000000)  returns 0x00 (0000ms, 0704ms total)
T19954 001:407 JLINK_WriteReg(MSP, 0x20001000)  returns 0x00 (0000ms, 0704ms total)
T19954 001:407 JLINK_WriteReg(PSP, 0x20001000)  returns 0x00 (0000ms, 0704ms total)
T19954 001:407 JLINK_WriteReg(CFBP, 0x00000000)  returns 0x00 (0000ms, 0704ms total)
T19954 001:407 JLINK_SetBPEx(Addr = 0x20000000, Type = 0xFFFFFFF2)  returns 0x0000000B (0000ms, 0704ms total)
T19954 001:407 JLINK_Go() (0002ms, 0706ms total)
T19954 001:410 JLINK_IsHalted()  returns FALSE (0000ms, 0707ms total)
T19954 001:414 JLINK_IsHalted() -- CPU_ReadMem(2 bytes @ 0x20000000)  returns TRUE (0003ms, 0710ms total)
T19954 001:417 JLINK_ReadReg(R15 (PC))  returns 0x20000000 (0000ms, 0707ms total)
T19954 001:417 JLINK_ClrBPEx(BPHandle = 0x0000000B)  returns 0x00 (0001ms, 0708ms total)
T19954 001:418 JLINK_ReadReg(R0)  returns 0x00000000 (0000ms, 0708ms total)
T19954 001:418 JLINK_WriteMem(0x20000184, 0x027C Bytes, ...) -- Data:  06 D0 0A 68 53 1C 0B 60 10 70 48 68 40 1E 48 60 ... -- CPU_WriteMem(636 bytes @ 0x20000184)  returns 0x27C (0008ms, 0716ms total)
T19954 001:426 JLINK_WriteMem(0x20000400, 0x0184 Bytes, ...) -- Data:  A1 89 88 42 10 D1 01 2D 0E D1 E0 89 40 1E E0 81 ... -- CPU_WriteMem(388 bytes @ 0x20000400)  returns 0x184 (0005ms, 0721ms total)
T19954 001:431 JLINK_WriteReg(R0, 0x08001800)  returns 0x00 (0000ms, 0721ms total)
T19954 001:431 JLINK_WriteReg(R1, 0x00000400)  returns 0x00 (0000ms, 0721ms total)
T19954 001:431 JLINK_WriteReg(R2, 0x20000184)  returns 0x00 (0000ms, 0721ms total)
T19954 001:431 JLINK_WriteReg(R3, 0x00000000)  returns 0x00 (0000ms, 0721ms total)
T19954 001:431 JLINK_WriteReg(R4, 0x00000000)  returns 0x00 (0000ms, 0721ms total)
T19954 001:431 JLINK_WriteReg(R5, 0x00000000)  returns 0x00 (0000ms, 0721ms total)
T19954 001:431 JLINK_WriteReg(R6, 0x00000000)  returns 0x00 (0000ms, 0721ms total)
T19954 001:431 JLINK_WriteReg(R7, 0x00000000)  returns 0x00 (0000ms, 0721ms total)
T19954 001:431 JLINK_WriteReg(R8, 0x00000000)  returns 0x00 (0000ms, 0721ms total)
T19954 001:431 JLINK_WriteReg(R9, 0x20000180)  returns 0x00 (0000ms, 0721ms total)
T19954 001:431 JLINK_WriteReg(R10, 0x00000000)  returns 0x00 (0000ms, 0721ms total)
T19954 001:431 JLINK_WriteReg(R11, 0x00000000)  returns 0x00 (0000ms, 0721ms total)
T19954 001:431 JLINK_WriteReg(R12, 0x00000000)  returns 0x00 (0000ms, 0721ms total)
T19954 001:431 JLINK_WriteReg(R13 (SP), 0x20001000)  returns 0x00 (0000ms, 0721ms total)
T19954 001:431 JLINK_WriteReg(R14, 0x20000001)  returns 0x00 (0000ms, 0721ms total)
T19954 001:431 JLINK_WriteReg(R15 (PC), 0x2000010C)  returns 0x00 (0000ms, 0721ms total)
T19954 001:431 JLINK_WriteReg(XPSR, 0x01000000)  returns 0x00 (0000ms, 0721ms total)
T19954 001:431 JLINK_WriteReg(MSP, 0x20001000)  returns 0x00 (0000ms, 0721ms total)
T19954 001:431 JLINK_WriteReg(PSP, 0x20001000)  returns 0x00 (0000ms, 0721ms total)
T19954 001:431 JLINK_WriteReg(CFBP, 0x00000000)  returns 0x00 (0000ms, 0721ms total)
T19954 001:431 JLINK_SetBPEx(Addr = 0x20000000, Type = 0xFFFFFFF2)  returns 0x0000000C (0000ms, 0721ms total)
T19954 001:431 JLINK_Go() (0002ms, 0723ms total)
T19954 001:433 JLINK_IsHalted()  returns FALSE (0000ms, 0723ms total)
T19954 001:440 JLINK_IsHalted() -- CPU_ReadMem(2 bytes @ 0x20000000)  returns TRUE (0003ms, 0726ms total)
T19954 001:443 JLINK_ReadReg(R15 (PC))  returns 0x20000000 (0000ms, 0723ms total)
T19954 001:443 JLINK_ClrBPEx(BPHandle = 0x0000000C)  returns 0x00 (0000ms, 0723ms total)
T19954 001:443 JLINK_ReadReg(R0)  returns 0x00000000 (0000ms, 0723ms total)
T19954 001:444 JLINK_WriteMem(0x20000184, 0x027C Bytes, ...) -- Data:  0E E0 0B 78 30 2B 07 D1 4B 78 62 2B 02 D0 4B 78 ... -- CPU_WriteMem(636 bytes @ 0x20000184)  returns 0x27C (0007ms, 0730ms total)
T19954 001:451 JLINK_WriteMem(0x20000400, 0x0184 Bytes, ...) -- Data:  10 99 42 F8 21 00 10 98 40 1C 10 90 24 98 40 1E ... -- CPU_WriteMem(388 bytes @ 0x20000400)  returns 0x184 (0006ms, 0736ms total)
T19954 001:457 JLINK_WriteReg(R0, 0x08001C00)  returns 0x00 (0000ms, 0736ms total)
T19954 001:457 JLINK_WriteReg(R1, 0x00000400)  returns 0x00 (0000ms, 0736ms total)
T19954 001:457 JLINK_WriteReg(R2, 0x20000184)  returns 0x00 (0000ms, 0736ms total)
T19954 001:457 JLINK_WriteReg(R3, 0x00000000)  returns 0x00 (0000ms, 0736ms total)
T19954 001:457 JLINK_WriteReg(R4, 0x00000000)  returns 0x00 (0000ms, 0736ms total)
T19954 001:457 JLINK_WriteReg(R5, 0x00000000)  returns 0x00 (0000ms, 0736ms total)
T19954 001:457 JLINK_WriteReg(R6, 0x00000000)  returns 0x00 (0000ms, 0736ms total)
T19954 001:457 JLINK_WriteReg(R7, 0x00000000)  returns 0x00 (0000ms, 0736ms total)
T19954 001:457 JLINK_WriteReg(R8, 0x00000000)  returns 0x00 (0000ms, 0736ms total)
T19954 001:457 JLINK_WriteReg(R9, 0x20000180)  returns 0x00 (0000ms, 0736ms total)
T19954 001:457 JLINK_WriteReg(R10, 0x00000000)  returns 0x00 (0000ms, 0736ms total)
T19954 001:457 JLINK_WriteReg(R11, 0x00000000)  returns 0x00 (0000ms, 0736ms total)
T19954 001:457 JLINK_WriteReg(R12, 0x00000000)  returns 0x00 (0000ms, 0736ms total)
T19954 001:457 JLINK_WriteReg(R13 (SP), 0x20001000)  returns 0x00 (0000ms, 0736ms total)
T19954 001:457 JLINK_WriteReg(R14, 0x20000001)  returns 0x00 (0000ms, 0736ms total)
T19954 001:457 JLINK_WriteReg(R15 (PC), 0x2000010C)  returns 0x00 (0000ms, 0736ms total)
T19954 001:457 JLINK_WriteReg(XPSR, 0x01000000)  returns 0x00 (0000ms, 0736ms total)
T19954 001:457 JLINK_WriteReg(MSP, 0x20001000)  returns 0x00 (0000ms, 0736ms total)
T19954 001:457 JLINK_WriteReg(PSP, 0x20001000)  returns 0x00 (0000ms, 0736ms total)
T19954 001:457 JLINK_WriteReg(CFBP, 0x00000000)  returns 0x00 (0000ms, 0736ms total)
T19954 001:457 JLINK_SetBPEx(Addr = 0x20000000, Type = 0xFFFFFFF2)  returns 0x0000000D (0000ms, 0736ms total)
T19954 001:457 JLINK_Go() (0002ms, 0738ms total)
T19954 001:459 JLINK_IsHalted()  returns FALSE (0001ms, 0739ms total)
T19954 001:466 JLINK_IsHalted() -- CPU_ReadMem(2 bytes @ 0x20000000)  returns TRUE (0004ms, 0742ms total)
T19954 001:470 JLINK_ReadReg(R15 (PC))  returns 0x20000000 (0000ms, 0738ms total)
T19954 001:470 JLINK_ClrBPEx(BPHandle = 0x0000000D)  returns 0x00 (0000ms, 0738ms total)
T19954 001:470 JLINK_ReadReg(R0)  returns 0x00000000 (0000ms, 0738ms total)
